
T15CC 000:213 SEGGER J-Link V4.50j Log File (0001ms, 0214ms total)
T15CC 000:213 DLL Compiled: Jun 26 2012 09:19:07 (0001ms, 0214ms total)
T15CC 000:213 Logging started @ 2016-07-27 15:42 (0001ms, 0214ms total)
T15CC 000:215 JLINK_SetWarnOutHandler(...) (0000ms, 0215ms total)
T15CC 000:215 JLINK_OpenEx(...)
Firmware: J-Link ARM V8 compiled Jul 17 2014 12:31:18
Hardware: V8.00
S/N: 68000531
Feature(s): RDI, FlashDL, FlashBP, JFlash, GDBServer  returns O.K. (0074ms, 0289ms total)
T15CC 000:289 JLINK_SetErrorOutHandler(...) (0000ms, 0289ms total)
T15CC 000:289 JLINK_ExecCommand("Device = STM32F103VE", ...)
                JLINK_ExecCommand("map ram 0x20000000 - 0x2000FFFF", ...)  returns 0x00 (0000ms, 0000ms total)
                JLINK_AddMirrorAreaEx(Addr = 0x00000000, Size = 0x00000000) (0000ms, 0000ms total)
              Device "STM32F103VE" selected (512 KB flash, 64 KB RAM).  returns 0x00 (0008ms, 0297ms total)
T15CC 000:297 JLINK_ExecCommand("ProjectFile = "C:\Users\Jodam QD\Desktop\LDC1000Ñ­¼£Ð¡³µ2\JLinkSettings.ini"", ...)  returns 0x00 (0001ms, 0298ms total)
T15CC 000:298 JLINK_ExecCommand("DisableConnectionTimeout", ...)  returns 0x00 (0000ms, 0298ms total)
T15CC 000:298 JLINK_TIF_Select(JLINKARM_TIF_JTAG)  returns 0x00 (0000ms, 0298ms total)
T15CC 000:298 JLINK_SetSpeed(2000) (0001ms, 0299ms total)
T15CC 000:299 JLINK_GetHardwareVersion()  returns 0x13880 (0000ms, 0299ms total)
T15CC 000:299 JLINK_GetDLLVersion()  returns 45010 (0000ms, 0299ms total)
T15CC 000:299 JLINK_GetFirmwareString(...) (0000ms, 0299ms total)
T15CC 000:312 JLINK_GetDLLVersion()  returns 45010 (0001ms, 0300ms total)
T15CC 000:313 JLINK_GetCompileDateTime() (0000ms, 0300ms total)
T15CC 000:313 JLINK_GetFirmwareString(...) (0000ms, 0300ms total)
T15CC 000:314 JLINK_GetHardwareVersion()  returns 0x13880 (0000ms, 0300ms total)
T15CC 000:316 JLINK_GetIdData(...) >0x2F8 JTAG>TotalIRLen = 9, IRPrint = 0x0011 >0x30 JTAG> >0x210 JTAG> >0x40 JTAG> >0x40 JTAG> >0x40 JTAG> >0x30 JTAG> >0x40 JTAG> >0x40 JTAG> >0x40 JTAG> >0x40 JTAG> >0x40 JTAG> >0x40 JTAG> >0x40 JTAG> >0x40 JTAG> >0x2F8 JTAG>TotalIRLen = 9, IRPrint = 0x0011 >0x30 JTAG> >0x210 JTAG> >0x80 JTAG> >0x40 JTAG> >0x40 JTAG> >0x50 JTAG> >0x40 JTAG> >0x40 JTAG> >0x40 JTAG> >0x50 JTAG> >0x40 JTAG> >0x50 JTAG> >0x40 JTAG> >0x40 JTAG> >0x40 JTAG> >0x40 JTAG> >0x30 JTAG>
 >0x40 JTAG> >0x50 JTAG> >0x40 JTAG> >0x38 JTAG> >0x80 JTAG> >0x40 JTAG> >0x40 JTAG> >0x50 JTAG> >0x40 JTAG> >0x40 JTAG> >0x40 JTAG> >0x50 JTAG> >0x40 JTAG> >0x40 JTAG> >0x30 JTAG> >0x40 JTAG> >0x40 JTAG> >0x40 JTAG> >0x40 JTAG> >0x40 JTAG> >0x50 JTAG> >0x40 JTAG> >0x80 JTAG> >0x40 JTAG> >0x30 JTAG> >0x40 JTAG> >0x40 JTAG> >0x40 JTAG> >0x40 JTAG> >0x40 JTAG> >0x50 JTAG> >0x40 JTAG> >0x80 JTAG> >0x40 JTAG> >0x30 JTAG> >0x40 JTAG> >0x50 JTAG> >0x40 JTAG> >0x40 JTAG> >0x40 JTAG> >0x30 JTAG> >0x40 JTAG>
 >0x50 JTAG> >0x40 JTAG>Found Cortex-M3 r1p1, Little endian. >0x50 JTAG> >0x50 JTAG> >0x40 JTAG> >0x40 JTAG> >0x30 JTAG> >0x30 JTAG> >0x50 JTAG> >0x40 JTAG> >0x80 JTAG> >0x40 JTAG> >0x30 JTAG> >0x40 JTAG> >0x50 JTAG> >0x40 JTAG> >0x40 JTAG> >0x40 JTAG> >0x30 JTAG> >0x40 JTAG> >0x50 JTAG> >0x40 JTAG>TPIU fitted. >0x40 JTAG> >0x40 JTAG> >0x30 JTAG> >0x40 JTAG> >0x50 JTAG> >0x40 JTAG> >0x40 JTAG> >0x40 JTAG> >0x30 JTAG> >0x40 JTAG> >0x50 JTAG> >0x40 JTAG> >0x40 JTAG> >0x40 JTAG> >0x30 JTAG> >0x40 JTAG>
 >0x50 JTAG> >0x40 JTAG>FPUnit: 6 code (BP) slots and 2 literal slots >0x40 JTAG> >0x40 JTAG> >0x30 JTAG> >0x40 JTAG> >0x50 JTAG> >0x40 JTAG> >0x40 JTAG> >0x40 JTAG> >0x30 JTAG> >0x40 JTAG> >0x50 JTAG> >0x40 JTAG> ScanLen=9 NumDevices=2 aId[0]=0x3BA00477 aIrRead[0]=0 aScanLen[0]=0 aScanRead[0]=0 (0055ms, 0355ms total)
T15CC 000:371 JLINK_JTAG_GetDeviceID(DeviceIndex = 0)  returns 0x3BA00477 (0000ms, 0355ms total)
T15CC 000:371 JLINK_JTAG_GetDeviceInfo(DeviceIndex = 0)  returns 0x00 (0000ms, 0355ms total)
T15CC 000:371 JLINK_JTAG_GetDeviceID(DeviceIndex = 1)  returns 0x16410041 (0000ms, 0355ms total)
T15CC 000:371 JLINK_JTAG_GetDeviceInfo(DeviceIndex = 1)  returns 0x00 (0001ms, 0356ms total)
T15CC 000:372 JLINK_GetDebugInfo(0x100) -- Value=0xE00FF003  returns 0x00 (0000ms, 0356ms total)
T15CC 000:372 JLINK_ReadMem (0xE00FFFF0, 0x0010 Bytes, ...) -- CPU is running -- CPU_ReadMem(16 bytes @ 0xE00FFFF0) -- Data:  0D 00 00 00 10 00 00 00 05 00 00 00 B1 00 00 00  returns 0x00 (0005ms, 0361ms total)
T15CC 000:377 JLINK_ReadMem (0xE00FFFD0, 0x0020 Bytes, ...) -- CPU is running -- CPU_ReadMem(32 bytes @ 0xE00FFFD0) -- Data:  00 00 00 00 00 00 00 00 00 00 00 00 00 00 00 00 ...  returns 0x00 (0001ms, 0362ms total)
T15CC 000:378 JLINK_ReadMem (0xE00FF000, 0x0018 Bytes, ...) -- CPU is running -- CPU_ReadMem(24 bytes @ 0xE00FF000) -- Data:  03 F0 F0 FF 03 20 F0 FF 03 30 F0 FF 03 10 F0 FF ...  returns 0x00 (0001ms, 0363ms total)
T15CC 000:379 JLINK_ReadMemU32(0xE000ED00, 0x0001 Items, ...) -- CPU is running -- CPU_ReadMem(4 bytes @ 0xE000ED00) -- Data:  31 C2 1F 41  returns 0x01 (0001ms, 0364ms total)
T15CC 000:380 JLINK_SetResetType(JLINKARM_RESET_TYPE_NORMAL)  returns JLINKARM_RESET_TYPE_NORMAL (0000ms, 0364ms total)
T15CC 000:380 JLINK_Reset() >0x48 JTAG> >0x80 JTAG> >0x40 JTAG> >0x40 JTAG> >0x50 JTAG> >0x40 JTAG> >0x40 JTAG> >0x40 JTAG> >0x50 JTAG> >0x40 JTAG> >0x40 JTAG> >0x30 JTAG> >0x40 JTAG> >0x40 JTAG> >0x40 JTAG> >0x40 JTAG> >0x40 JTAG> >0x50 JTAG> >0x40 JTAG> >0x80 JTAG> >0x40 JTAG> >0x30 JTAG> >0x40 JTAG> >0x40 JTAG> >0x40 JTAG> >0x40 JTAG> >0x40 JTAG> >0x50 JTAG> >0x40 JTAG> >0x80 JTAG> >0x40 JTAG> >0x30 JTAG> >0x40 JTAG> >0x50 JTAG> >0x40 JTAG> >0x40 JTAG> >0x40 JTAG> >0x30 JTAG> >0x40 JTAG> >0x50 JTAG>
 >0x40 JTAG>Found Cortex-M3 r1p1, Little endian. >0x50 JTAG> >0x50 JTAG> >0x40 JTAG> >0x40 JTAG> >0x30 JTAG> >0x30 JTAG> >0x50 JTAG> >0x40 JTAG> >0x80 JTAG> >0x40 JTAG> >0x30 JTAG> >0x40 JTAG> >0x50 JTAG> >0x40 JTAG> >0x40 JTAG> >0x40 JTAG> >0x30 JTAG> >0x40 JTAG> >0x50 JTAG> >0x40 JTAG>TPIU fitted. >0x40 JTAG> >0x40 JTAG> >0x30 JTAG> >0x40 JTAG> >0x50 JTAG> >0x40 JTAG> >0x40 JTAG> >0x40 JTAG> >0x30 JTAG> >0x40 JTAG> >0x50 JTAG> >0x40 JTAG> >0x40 JTAG> >0x40 JTAG> >0x30 JTAG> >0x40 JTAG> >0x50 JTAG>
 >0x40 JTAG>FPUnit: 6 code (BP) slots and 2 literal slots >0x40 JTAG> >0x40 JTAG> >0x30 JTAG> >0x40 JTAG> >0x50 JTAG> >0x40 JTAG> >0x40 JTAG> >0x40 JTAG> >0x30 JTAG> >0x40 JTAG> >0x50 JTAG> >0x40 JTAG> -- CPU is running -- CPU_WriteMem(4 bytes @ 0xE000EDF0) -- CPU is running -- CPU_WriteMem(4 bytes @ 0xE000EDFC) -- CPU is running -- CPU_WriteMem(4 bytes @ 0xE000ED0C) -- CPU is running -- CPU_ReadMem(4 bytes @ 0xE000EDF0) -- CPU is running -- CPU_ReadMem(4 bytes @ 0xE000EDF0) -- CPU is running
 -- CPU_WriteMem(4 bytes @ 0xE000EDF0) -- CPU is running -- CPU_WriteMem(4 bytes @ 0xE000EDFC) -- CPU is running -- CPU_ReadMem(4 bytes @ 0xE000EDF0) >0x90 JTAG> >0x40 JTAG> >0x30 JTAG> >0x40 JTAG> >0x50 JTAG> >0x40 JTAG> -- CPU_WriteMem(4 bytes @ 0xE000EDFC) -- CPU_WriteMem(4 bytes @ 0xE0001028) -- CPU_WriteMem(4 bytes @ 0xE0001038) -- CPU_WriteMem(4 bytes @ 0xE0001048) -- CPU_WriteMem(4 bytes @ 0xE0001058) -- CPU_WriteMem(4 bytes @ 0xE0002000) (0066ms, 0430ms total)
T15CC 000:446 JLINK_ReadReg(R15)  returns 0x08000144 (0000ms, 0430ms total)
T15CC 000:446 JLINK_ReadReg(XPSR)  returns 0x01000000 (0000ms, 0430ms total)
T15CC 000:446 JLINK_Halt()  returns 0x00 (0000ms, 0430ms total)
T15CC 000:446 JLINK_IsHalted()  returns TRUE (0000ms, 0430ms total)
T15CC 000:446 JLINK_ReadMemU32(0xE000EDF0, 0x0001 Items, ...) -- CPU_ReadMem(4 bytes @ 0xE000EDF0) -- Data:  03 00 03 00  returns 0x01 (0001ms, 0431ms total)
T15CC 000:447 JLINK_WriteU32(0xE000EDF0, 0xA05F0003) -- CPU_WriteMem(4 bytes @ 0xE000EDF0)  returns 0x00 (0000ms, 0431ms total)
T15CC 000:447 JLINK_WriteU32(0xE000EDFC, 0x01000000) -- CPU_WriteMem(4 bytes @ 0xE000EDFC)  returns 0x00 (0001ms, 0432ms total)
T15CC 000:455 JLINK_GetHWStatus(...)  returns 0x00 (0000ms, 0432ms total)
T15CC 000:458 JLINK_GetNumBPUnits(Type = 0xFFFFFF00)  returns 0x06 (0000ms, 0432ms total)
T15CC 000:458 JLINK_GetNumBPUnits(Type = 0xF0)  returns 0x2000 (0000ms, 0432ms total)
T15CC 000:458 JLINK_GetNumWPUnits()  returns 0x04 (0000ms, 0432ms total)
T15CC 000:462 JLINK_GetSpeed()  returns 0x7D0 (0000ms, 0432ms total)
T15CC 000:462 JLINK_ReadMemU32(0xE000E004, 0x0001 Items, ...) -- CPU_ReadMem(4 bytes @ 0xE000E004) -- Data:  01 00 00 00  returns 0x01 (0001ms, 0433ms total)
T15CC 000:463 JLINK_ReadMemU32(0xE000E004, 0x0001 Items, ...) -- CPU_ReadMem(4 bytes @ 0xE000E004) -- Data:  01 00 00 00  returns 0x01 (0001ms, 0434ms total)
T15CC 000:464 JLINK_WriteMem(0xE0001000, 0x001C Bytes, ...) -- Data:  01 00 00 00 00 00 00 00 00 00 00 00 00 00 00 00 ... -- CPU_WriteMem(28 bytes @ 0xE0001000)  returns 0x1C (0001ms, 0435ms total)
T15CC 000:465 JLINK_ReadMem (0xE0001000, 0x001C Bytes, ...) -- CPU_ReadMem(28 bytes @ 0xE0001000) -- Data:  01 00 00 40 00 00 00 00 00 00 00 00 00 00 00 00 ...  returns 0x00 (0001ms, 0436ms total)
T15CC 000:466 JLINK_ReadReg(R15)  returns 0x08000144 (0000ms, 0436ms total)
T15CC 000:467 JLINK_ReadReg(XPSR)  returns 0x01000000 (0000ms, 0437ms total)
T15CC 000:634 JLINK_SetResetType(JLINKARM_RESET_TYPE_NORMAL)  returns JLINKARM_RESET_TYPE_NORMAL (0000ms, 0437ms total)
T15CC 000:634 JLINK_Reset() >0x38 JTAG> >0x80 JTAG> >0x40 JTAG> >0x40 JTAG> >0x50 JTAG> >0x40 JTAG> >0x40 JTAG> >0x40 JTAG> >0x50 JTAG> >0x40 JTAG> >0x40 JTAG> >0x30 JTAG> >0x40 JTAG> >0x40 JTAG> >0x40 JTAG> >0x40 JTAG> >0x40 JTAG> >0x50 JTAG> >0x40 JTAG> >0x80 JTAG> >0x40 JTAG> >0x30 JTAG> >0x40 JTAG> >0x40 JTAG> >0x40 JTAG> >0x40 JTAG> >0x40 JTAG> >0x50 JTAG> >0x40 JTAG> >0x80 JTAG> >0x40 JTAG> >0x30 JTAG> >0x40 JTAG> >0x50 JTAG> >0x40 JTAG> >0x40 JTAG> >0x40 JTAG> >0x30 JTAG> >0x40 JTAG> >0x50 JTAG>
 >0x40 JTAG>Found Cortex-M3 r1p1, Little endian. >0x50 JTAG> >0x50 JTAG> >0x40 JTAG> >0x40 JTAG> >0x30 JTAG> >0x30 JTAG> >0x50 JTAG> >0x40 JTAG> >0x80 JTAG> >0x40 JTAG> >0x30 JTAG> >0x40 JTAG> >0x50 JTAG> >0x40 JTAG> >0x40 JTAG> >0x40 JTAG> >0x30 JTAG> >0x40 JTAG> >0x50 JTAG> >0x40 JTAG>TPIU fitted. >0x40 JTAG> >0x40 JTAG> >0x30 JTAG> >0x40 JTAG> >0x50 JTAG> >0x40 JTAG> >0x40 JTAG> >0x40 JTAG> >0x30 JTAG> >0x40 JTAG> >0x50 JTAG> >0x40 JTAG> >0x40 JTAG> >0x40 JTAG> >0x30 JTAG> >0x40 JTAG> >0x50 JTAG>
 >0x40 JTAG>FPUnit: 6 code (BP) slots and 2 literal slots >0x40 JTAG> >0x40 JTAG> >0x30 JTAG> >0x40 JTAG> >0x50 JTAG> >0x40 JTAG> >0x40 JTAG> >0x40 JTAG> >0x30 JTAG> >0x40 JTAG> >0x50 JTAG> >0x40 JTAG> -- CPU_WriteMem(4 bytes @ 0xE000EDF0) -- CPU_WriteMem(4 bytes @ 0xE000EDFC) -- CPU_WriteMem(4 bytes @ 0xE000ED0C) -- CPU_ReadMem(4 bytes @ 0xE000EDF0) -- CPU_ReadMem(4 bytes @ 0xE000EDF0) -- CPU_WriteMem(4 bytes @ 0xE000EDF0) -- CPU_WriteMem(4 bytes @ 0xE000EDFC) -- CPU is running
 -- CPU_ReadMem(4 bytes @ 0xE000EDF0) >0x90 JTAG> >0x40 JTAG> >0x30 JTAG> >0x40 JTAG> >0x50 JTAG> >0x40 JTAG> -- CPU_WriteMem(4 bytes @ 0xE000EDFC) -- CPU_WriteMem(4 bytes @ 0xE0001028) -- CPU_WriteMem(4 bytes @ 0xE0001038) -- CPU_WriteMem(4 bytes @ 0xE0001048) -- CPU_WriteMem(4 bytes @ 0xE0001058) -- CPU_WriteMem(4 bytes @ 0xE0002000) (0069ms, 0506ms total)
T15CC 000:703 JLINK_ReadReg(R15)  returns 0x08000144 (0000ms, 0506ms total)
T15CC 000:703 JLINK_ReadReg(XPSR)  returns 0x01000000 (0000ms, 0506ms total)
T15CC 000:703 JLINK_ReadMemU32(0xE0001004, 0x0001 Items, ...) -- CPU_ReadMem(4 bytes @ 0xE0001004) -- Data:  FE 0C 00 00  returns 0x01 (0001ms, 0507ms total)
T15CC 000:707 JLINK_ReadMem (0x08000144, 0x003C Bytes, ...) -- CPU_ReadMem(64 bytes @ 0x08000140) -- Updating C cache (64 bytes @ 0x08000140) -- Read from C cache (60 bytes @ 0x08000144) -- Data:  06 48 80 47 06 48 00 47 FE E7 FE E7 FE E7 FE E7 ...  returns 0x00 (0001ms, 0508ms total)
T2498 006:399 JLINK_SetBPEx(Addr = 0x08000168, Type = 0xFFFFFFF2)  returns 0x00000001 (0001ms, 0509ms total)
T2498 006:400 JLINK_SetBPEx(Addr = 0x08000EFE, Type = 0xFFFFFFF2)  returns 0x00000002 (0000ms, 0509ms total)
T2498 006:400 JLINK_Go() -- CPU_WriteMem(4 bytes @ 0xE0002008) -- CPU_WriteMem(4 bytes @ 0xE000200C) -- CPU_WriteMem(4 bytes @ 0xE0002010) -- CPU_WriteMem(4 bytes @ 0xE0002014) -- CPU_WriteMem(4 bytes @ 0xE0002018) -- CPU_WriteMem(4 bytes @ 0xE000201C) (0005ms, 0514ms total)
T2498 006:505 JLINK_IsHalted()  returns TRUE (0006ms, 0520ms total)
T2498 006:511 JLINK_Halt()  returns 0x00 (0000ms, 0514ms total)
T2498 006:511 JLINK_IsHalted()  returns TRUE (0000ms, 0514ms total)
T2498 006:511 JLINK_IsHalted()  returns TRUE (0000ms, 0514ms total)
T2498 006:511 JLINK_IsHalted()  returns TRUE (0000ms, 0514ms total)
T2498 006:511 JLINK_ReadReg(R15)  returns 0x08000168 (0000ms, 0514ms total)
T2498 006:511 JLINK_ReadReg(XPSR)  returns 0x61000000 (0000ms, 0514ms total)
T2498 006:511 JLINK_ClrBPEx(BPHandle = 0x00000001)  returns 0x00 (0000ms, 0514ms total)
T2498 006:511 JLINK_ClrBPEx(BPHandle = 0x00000002)  returns 0x00 (0001ms, 0515ms total)
T2498 006:512 JLINK_ReadMemU32(0xE000ED30, 0x0001 Items, ...) -- CPU_ReadMem(4 bytes @ 0xE000ED30) -- Data:  03 00 00 00  returns 0x01 (0001ms, 0516ms total)
T2498 006:513 JLINK_ReadMemU32(0xE0001028, 0x0001 Items, ...) -- CPU_ReadMem(4 bytes @ 0xE0001028) -- Data:  00 00 00 00  returns 0x01 (0001ms, 0517ms total)
T2498 006:514 JLINK_ReadMemU32(0xE0001038, 0x0001 Items, ...) -- CPU_ReadMem(4 bytes @ 0xE0001038) -- Data:  00 02 00 00  returns 0x01 (0000ms, 0517ms total)
T2498 006:514 JLINK_ReadMemU32(0xE0001048, 0x0001 Items, ...) -- CPU_ReadMem(4 bytes @ 0xE0001048) -- Data:  00 00 00 00  returns 0x01 (0001ms, 0518ms total)
T2498 006:515 JLINK_ReadMemU32(0xE0001058, 0x0001 Items, ...) -- CPU_ReadMem(4 bytes @ 0xE0001058) -- Data:  00 00 00 00  returns 0x01 (0001ms, 0519ms total)
T2498 006:516 JLINK_ReadReg(R0)  returns 0x08000169 (0001ms, 0520ms total)
T2498 006:517 JLINK_ReadReg(R1)  returns 0x200006D8 (0000ms, 0520ms total)
T2498 006:517 JLINK_ReadReg(R2)  returns 0x00000000 (0000ms, 0520ms total)
T2498 006:517 JLINK_ReadReg(R3)  returns 0x08003321 (0000ms, 0520ms total)
T2498 006:517 JLINK_ReadReg(R4)  returns 0x08003E38 (0000ms, 0520ms total)
T2498 006:517 JLINK_ReadReg(R5)  returns 0x08003E38 (0000ms, 0520ms total)
T2498 006:517 JLINK_ReadReg(R6)  returns 0x00000004 (0000ms, 0520ms total)
T2498 006:517 JLINK_ReadReg(R7)  returns 0x20000684 (0000ms, 0520ms total)
T2498 006:517 JLINK_ReadReg(R8)  returns 0x00000000 (0001ms, 0521ms total)
T2498 006:518 JLINK_ReadReg(R9)  returns 0x20000160 (0000ms, 0521ms total)
T2498 006:518 JLINK_ReadReg(R10)  returns 0x00000000 (0000ms, 0521ms total)
T2498 006:518 JLINK_ReadReg(R11)  returns 0x0800053B (0000ms, 0521ms total)
T2498 006:518 JLINK_ReadReg(R12)  returns 0x00000064 (0000ms, 0521ms total)
T2498 006:518 JLINK_ReadReg(R13)  returns 0x200006D8 (0000ms, 0521ms total)
T2498 006:518 JLINK_ReadReg(R14)  returns 0x0800324D (0000ms, 0521ms total)
T2498 006:518 JLINK_ReadReg(R15)  returns 0x08000168 (0000ms, 0521ms total)
T2498 006:518 JLINK_ReadReg(XPSR)  returns 0x61000000 (0000ms, 0521ms total)
T2498 006:519 JLINK_ReadReg(MSP)  returns 0x200006D8 (0000ms, 0522ms total)
T2498 006:519 JLINK_ReadReg(PSP)  returns 0x20000800 (0000ms, 0522ms total)
T2498 006:519 JLINK_ReadReg(CFBP)  returns 0x00000000 (0000ms, 0522ms total)
T15CC 006:533 JLINK_ReadMemU32(0xE0001004, 0x0001 Items, ...) -- CPU_ReadMem(4 bytes @ 0xE0001004) -- Data:  A2 4E 00 00  returns 0x01 (0001ms, 0523ms total)
T15CC 008:215 JLINK_ReadMem (0x00000000, 0x004E Bytes, ...)
                JLINK_ReadMemHW(0x00000000, 0x0004 Bytes, ...) -- CPU_ReadMem(4 bytes @ 0x00000000) -- Data:  D8 06 00 20  returns 0x00 (0001ms, 0001ms total)
                JLINK_ReadMemHW(0x08000000, 0x0004 Bytes, ...) -- CPU_ReadMem(4 bytes @ 0x08000000) -- Data:  D8 06 00 20  returns 0x00 (0001ms, 0002ms total)
                JLINK_WriteMemHW(0x00000000, 0x0004 Bytes, ...) -- Data:  09 00 01 00 -- CPU_WriteMem(4 bytes @ 0x00000000)  returns 0x04 (0000ms, 0002ms total)
                JLINK_ReadMemHW(0x00000000, 0x0004 Bytes, ...) -- CPU_ReadMem(4 bytes @ 0x00000000) -- Data:  D8 06 00 20  returns 0x00 (0001ms, 0003ms total)
               -- MA0 is in flash -- Unmirror addr 0x00000000 -- CPU_ReadMem(128 bytes @ 0x08000000) -- Updating C cache (128 bytes @ 0x08000000) -- Read from C cache (78 bytes @ 0x08000000) -- Data:  D8 06 00 20 45 01 00 08 99 07 00 08 B7 07 00 08 ...  returns 0x00 (0007ms, 0530ms total)
T15CC 050:043 JLINK_ReadMem (0x08000EC4, 0x003C Bytes, ...) -- CPU_ReadMem(64 bytes @ 0x08000EC0) -- Updating C cache (64 bytes @ 0x08000EC0) -- Read from C cache (60 bytes @ 0x08000EC4) -- Data:  4F F0 80 41 88 8C 00 21 4F F0 80 42 91 84 B0 F5 ...  returns 0x00 (0002ms, 0532ms total)
T2498 053:950 JLINK_SetBPEx(Addr = 0x08000EFE, Type = 0xFFFFFFF2)  returns 0x00000003 (0001ms, 0533ms total)
T2498 053:951 JLINK_Go() -- CPU_WriteMem(4 bytes @ 0xE000200C) -- CPU_WriteMem(4 bytes @ 0xE0002008) -- CPU_WriteMem(4 bytes @ 0xE0002008) -- CPU_WriteMem(4 bytes @ 0xE000200C) -- CPU_WriteMem(4 bytes @ 0xE0002010) -- CPU_WriteMem(4 bytes @ 0xE0002014) -- CPU_WriteMem(4 bytes @ 0xE0002018) -- CPU_WriteMem(4 bytes @ 0xE000201C) -- Invalidate MA0 status (0006ms, 0539ms total)
T2498 054:058 JLINK_IsHalted()  returns FALSE (0000ms, 0539ms total)
T2498 054:160 JLINK_IsHalted()  returns FALSE (0000ms, 0539ms total)
T2498 054:261 JLINK_IsHalted()  returns FALSE (0000ms, 0539ms total)
T2498 054:362 JLINK_IsHalted()  returns TRUE (0004ms, 0543ms total)
T2498 054:366 JLINK_Halt()  returns 0x00 (0001ms, 0540ms total)
T2498 054:367 JLINK_IsHalted()  returns TRUE (0000ms, 0540ms total)
T2498 054:367 JLINK_IsHalted()  returns TRUE (0000ms, 0540ms total)
T2498 054:367 JLINK_IsHalted()  returns TRUE (0000ms, 0540ms total)
T2498 054:367 JLINK_ReadReg(R15)  returns 0x08000EFE (0000ms, 0540ms total)
T2498 054:367 JLINK_ReadReg(XPSR)  returns 0xA1000029 (0000ms, 0540ms total)
T2498 054:367 JLINK_ClrBPEx(BPHandle = 0x00000003)  returns 0x00 (0000ms, 0540ms total)
T2498 054:367 JLINK_ReadMemU32(0xE000ED30, 0x0001 Items, ...) -- CPU_ReadMem(4 bytes @ 0xE000ED30) -- Data:  03 00 00 00  returns 0x01 (0001ms, 0541ms total)
T2498 054:368 JLINK_ReadMemU32(0xE0001028, 0x0001 Items, ...) -- CPU_ReadMem(4 bytes @ 0xE0001028) -- Data:  00 00 00 00  returns 0x01 (0001ms, 0542ms total)
T2498 054:369 JLINK_ReadMemU32(0xE0001038, 0x0001 Items, ...) -- CPU_ReadMem(4 bytes @ 0xE0001038) -- Data:  00 02 00 00  returns 0x01 (0001ms, 0543ms total)
T2498 054:370 JLINK_ReadMemU32(0xE0001048, 0x0001 Items, ...) -- CPU_ReadMem(4 bytes @ 0xE0001048) -- Data:  00 00 00 00  returns 0x01 (0001ms, 0544ms total)
T2498 054:371 JLINK_ReadMemU32(0xE0001058, 0x0001 Items, ...) -- CPU_ReadMem(4 bytes @ 0xE0001058) -- Data:  00 00 00 00  returns 0x01 (0001ms, 0545ms total)
T2498 054:372 JLINK_ReadReg(R0)  returns 0x40012C00 (0000ms, 0545ms total)
T2498 054:372 JLINK_ReadReg(R1)  returns 0x00000001 (0000ms, 0545ms total)
T2498 054:372 JLINK_ReadReg(R2)  returns 0xFFFFFFFE (0000ms, 0545ms total)
T2498 054:372 JLINK_ReadReg(R3)  returns 0x00000001 (0000ms, 0545ms total)
T2498 054:373 JLINK_ReadReg(R4)  returns 0x02000000 (0000ms, 0546ms total)
T2498 054:373 JLINK_ReadReg(R5)  returns 0xE000E000 (0000ms, 0546ms total)
T2498 054:373 JLINK_ReadReg(R6)  returns 0xE000E000 (0000ms, 0546ms total)
T2498 054:373 JLINK_ReadReg(R7)  returns 0x20000684 (0000ms, 0546ms total)
T2498 054:373 JLINK_ReadReg(R8)  returns 0x00000000 (0000ms, 0546ms total)
T2498 054:373 JLINK_ReadReg(R9)  returns 0x20000160 (0000ms, 0546ms total)
T2498 054:373 JLINK_ReadReg(R10)  returns 0x00000000 (0000ms, 0546ms total)
T2498 054:373 JLINK_ReadReg(R11)  returns 0x0800053B (0000ms, 0546ms total)
T2498 054:373 JLINK_ReadReg(R12)  returns 0x00000003 (0001ms, 0547ms total)
T2498 054:374 JLINK_ReadReg(R13)  returns 0x20000680 (0000ms, 0547ms total)
T2498 054:374 JLINK_ReadReg(R14)  returns 0x08000EFF (0000ms, 0547ms total)
T2498 054:374 JLINK_ReadReg(R15)  returns 0x08000EFE (0000ms, 0547ms total)
T2498 054:374 JLINK_ReadReg(XPSR)  returns 0xA1000029 (0000ms, 0547ms total)
T2498 054:374 JLINK_ReadReg(MSP)  returns 0x20000680 (0000ms, 0547ms total)
T2498 054:374 JLINK_ReadReg(PSP)  returns 0x20000800 (0000ms, 0547ms total)
T2498 054:374 JLINK_ReadReg(CFBP)  returns 0x00000000 (0000ms, 0547ms total)
T15CC 054:461 JLINK_ReadMem (0x20000684, 0x0004 Bytes, ...) -- CPU_ReadMem(64 bytes @ 0x20000680) -- Updating C cache (64 bytes @ 0x20000680) -- Read from C cache (4 bytes @ 0x20000684) -- Data:  F9 FF FF FF  returns 0x00 (0001ms, 0548ms total)
T15CC 054:462 JLINK_ReadMem (0x200006A0, 0x0004 Bytes, ...) -- Read from C cache (4 bytes @ 0x200006A0) -- Data:  3E 08 00 08  returns 0x00 (0000ms, 0548ms total)
T15CC 054:462 JLINK_ReadMem (0x200006A4, 0x0004 Bytes, ...) -- Read from C cache (4 bytes @ 0x200006A4) -- Data:  00 00 00 61  returns 0x00 (0000ms, 0548ms total)
T15CC 054:462 JLINK_ReadMem (0x2000069C, 0x0004 Bytes, ...) -- Read from C cache (4 bytes @ 0x2000069C) -- Data:  E9 0D 00 08  returns 0x00 (0001ms, 0549ms total)
T15CC 054:463 JLINK_ReadMem (0xE000ED28, 0x0004 Bytes, ...) -- CPU_ReadMem(4 bytes @ 0xE000ED28) -- Data:  00 00 00 00  returns 0x00 (0000ms, 0549ms total)
T15CC 054:465 JLINK_ReadMem (0x200006B4, 0x0004 Bytes, ...) -- Read from C cache (4 bytes @ 0x200006B4) -- Data:  E9 0D 00 08  returns 0x00 (0000ms, 0549ms total)
T15CC 054:465 JLINK_ReadMem (0x200006A8, 0x0004 Bytes, ...) -- Read from C cache (4 bytes @ 0x200006A8) -- Data:  1F 1C 00 00  returns 0x00 (0000ms, 0549ms total)
T15CC 054:465 JLINK_ReadMem (0x200006AC, 0x0004 Bytes, ...) -- Read from C cache (4 bytes @ 0x200006AC) -- Data:  31 00 00 00  returns 0x00 (0000ms, 0549ms total)
T15CC 054:465 JLINK_ReadMem (0x200006B0, 0x0004 Bytes, ...) -- Read from C cache (4 bytes @ 0x200006B0) -- Data:  04 00 00 00  returns 0x00 (0000ms, 0549ms total)
T15CC 054:466 JLINK_ReadMem (0x200006D4, 0x0004 Bytes, ...) -- CPU_ReadMem(64 bytes @ 0x200006C0) -- Updating C cache (64 bytes @ 0x200006C0) -- Read from C cache (4 bytes @ 0x200006D4) -- Data:  9D 01 00 08  returns 0x00 (0001ms, 0551ms total)
T15CC 054:467 JLINK_ReadMem (0x200006C8, 0x0004 Bytes, ...) -- Read from C cache (4 bytes @ 0x200006C8) -- Data:  38 3E 00 08  returns 0x00 (0000ms, 0551ms total)
T15CC 054:467 JLINK_ReadMem (0x200006CC, 0x0004 Bytes, ...) -- Read from C cache (4 bytes @ 0x200006CC) -- Data:  38 3E 00 08  returns 0x00 (0000ms, 0551ms total)
T15CC 054:467 JLINK_ReadMem (0x200006D0, 0x0004 Bytes, ...) -- Read from C cache (4 bytes @ 0x200006D0) -- Data:  04 00 00 00  returns 0x00 (0001ms, 0552ms total)
T15CC 054:472 JLINK_ReadMemU32(0xE0001004, 0x0001 Items, ...) -- CPU_ReadMem(4 bytes @ 0xE0001004) -- Data:  7C B4 81 01  returns 0x01 (0001ms, 0553ms total)
T15CC 054:518 JLINK_ReadMem (0x08000EFE, 0x0002 Bytes, ...) -- CPU_ReadMem(64 bytes @ 0x08000EC0) -- Updating C cache (64 bytes @ 0x08000EC0) -- Read from C cache (2 bytes @ 0x08000EFE) -- Data:  FF F7  returns 0x00 (0002ms, 0555ms total)
T15CC 054:520 JLINK_ReadMem (0x08000F00, 0x003C Bytes, ...) -- CPU_ReadMem(64 bytes @ 0x08000F00) -- Updating C cache (64 bytes @ 0x08000F00) -- Read from C cache (60 bytes @ 0x08000F00) -- Data:  E1 FF 05 48 01 68 05 A0 02 F0 F2 F9 10 BD 00 00 ...  returns 0x00 (0001ms, 0556ms total)
T2498 058:192 JLINK_Step() -- Read from C cache (2 bytes @ 0x08000EFE) -- Read from C cache (2 bytes @ 0x08000F00) -- Simulated  returns 0x00 (0001ms, 0557ms total)
T2498 058:193 JLINK_ReadReg(R15)  returns 0x08000EC4 (0000ms, 0557ms total)
T2498 058:193 JLINK_ReadReg(XPSR)  returns 0xA1000029 (0000ms, 0557ms total)
T2498 058:193 JLINK_SetBPEx(Addr = 0x08000F02, Type = 0xFFFFFFF2)  returns 0x00000004 (0000ms, 0557ms total)
T2498 058:193 JLINK_SetBPEx(Addr = 0x08000EFE, Type = 0xFFFFFFF2)  returns 0x00000005 (0000ms, 0557ms total)
T2498 058:193 JLINK_Go() -- CPU_WriteMem(4 bytes @ 0xE0002008) -- CPU_WriteMem(4 bytes @ 0xE000200C) -- CPU_WriteMem(4 bytes @ 0xE0002010) -- CPU_WriteMem(4 bytes @ 0xE0002014) -- CPU_WriteMem(4 bytes @ 0xE0002018) -- CPU_WriteMem(4 bytes @ 0xE000201C) (0006ms, 0563ms total)
T2498 058:300 JLINK_IsHalted()  returns TRUE (0004ms, 0567ms total)
T2498 058:304 JLINK_Halt()  returns 0x00 (0001ms, 0564ms total)
T2498 058:305 JLINK_IsHalted()  returns TRUE (0000ms, 0564ms total)
T2498 058:305 JLINK_IsHalted()  returns TRUE (0000ms, 0564ms total)
T2498 058:305 JLINK_IsHalted()  returns TRUE (0000ms, 0564ms total)
T2498 058:305 JLINK_ReadReg(R15)  returns 0x08000F02 (0000ms, 0564ms total)
T2498 058:305 JLINK_ReadReg(XPSR)  returns 0x81000029 (0000ms, 0564ms total)
T2498 058:305 JLINK_ClrBPEx(BPHandle = 0x00000004)  returns 0x00 (0000ms, 0564ms total)
T2498 058:305 JLINK_ClrBPEx(BPHandle = 0x00000005)  returns 0x00 (0000ms, 0564ms total)
T2498 058:305 JLINK_ReadMemU32(0xE000ED30, 0x0001 Items, ...) -- CPU_ReadMem(4 bytes @ 0xE000ED30) -- Data:  03 00 00 00  returns 0x01 (0001ms, 0565ms total)
T2498 058:306 JLINK_ReadMemU32(0xE0001028, 0x0001 Items, ...) -- CPU_ReadMem(4 bytes @ 0xE0001028) -- Data:  00 00 00 00  returns 0x01 (0001ms, 0566ms total)
T2498 058:307 JLINK_ReadMemU32(0xE0001038, 0x0001 Items, ...) -- CPU_ReadMem(4 bytes @ 0xE0001038) -- Data:  00 02 00 00  returns 0x01 (0001ms, 0567ms total)
T2498 058:308 JLINK_ReadMemU32(0xE0001048, 0x0001 Items, ...) -- CPU_ReadMem(4 bytes @ 0xE0001048) -- Data:  00 00 00 00  returns 0x01 (0001ms, 0568ms total)
T2498 058:309 JLINK_ReadMemU32(0xE0001058, 0x0001 Items, ...) -- CPU_ReadMem(4 bytes @ 0xE0001058) -- Data:  00 00 00 00  returns 0x01 (0001ms, 0569ms total)
T2498 058:310 JLINK_ReadReg(R0)  returns 0x00000000 (0000ms, 0569ms total)
T2498 058:310 JLINK_ReadReg(R1)  returns 0x20000028 (0000ms, 0569ms total)
T2498 058:310 JLINK_ReadReg(R2)  returns 0x40000000 (0000ms, 0569ms total)
T2498 058:310 JLINK_ReadReg(R3)  returns 0x00000001 (0000ms, 0569ms total)
T2498 058:310 JLINK_ReadReg(R4)  returns 0x02000000 (0000ms, 0569ms total)
T2498 058:310 JLINK_ReadReg(R5)  returns 0xE000E000 (0000ms, 0569ms total)
T2498 058:310 JLINK_ReadReg(R6)  returns 0xE000E000 (0001ms, 0570ms total)
T2498 058:311 JLINK_ReadReg(R7)  returns 0x20000684 (0000ms, 0570ms total)
T2498 058:311 JLINK_ReadReg(R8)  returns 0x00000000 (0000ms, 0570ms total)
T2498 058:311 JLINK_ReadReg(R9)  returns 0x20000160 (0000ms, 0570ms total)
T2498 058:311 JLINK_ReadReg(R10)  returns 0x00000000 (0000ms, 0570ms total)
T2498 058:311 JLINK_ReadReg(R11)  returns 0x0800053B (0000ms, 0570ms total)
T2498 058:311 JLINK_ReadReg(R12)  returns 0x00000003 (0000ms, 0570ms total)
T2498 058:311 JLINK_ReadReg(R13)  returns 0x20000680 (0000ms, 0570ms total)
T2498 058:311 JLINK_ReadReg(R14)  returns 0x08000F03 (0000ms, 0570ms total)
T2498 058:311 JLINK_ReadReg(R15)  returns 0x08000F02 (0000ms, 0570ms total)
T2498 058:311 JLINK_ReadReg(XPSR)  returns 0x81000029 (0001ms, 0571ms total)
T2498 058:312 JLINK_ReadReg(MSP)  returns 0x20000680 (0000ms, 0571ms total)
T2498 058:312 JLINK_ReadReg(PSP)  returns 0x20000800 (0000ms, 0571ms total)
T2498 058:312 JLINK_ReadReg(CFBP)  returns 0x00000000 (0000ms, 0571ms total)
T15CC 058:319 JLINK_ReadMem (0x20000684, 0x0004 Bytes, ...) -- CPU_ReadMem(64 bytes @ 0x20000680) -- Updating C cache (64 bytes @ 0x20000680) -- Read from C cache (4 bytes @ 0x20000684) -- Data:  F9 FF FF FF  returns 0x00 (0001ms, 0572ms total)
T15CC 058:320 JLINK_ReadMem (0x200006A0, 0x0004 Bytes, ...) -- Read from C cache (4 bytes @ 0x200006A0) -- Data:  3E 08 00 08  returns 0x00 (0000ms, 0572ms total)
T15CC 058:320 JLINK_ReadMem (0x200006A4, 0x0004 Bytes, ...) -- Read from C cache (4 bytes @ 0x200006A4) -- Data:  00 00 00 61  returns 0x00 (0001ms, 0573ms total)
T15CC 058:321 JLINK_ReadMem (0x2000069C, 0x0004 Bytes, ...) -- Read from C cache (4 bytes @ 0x2000069C) -- Data:  E9 0D 00 08  returns 0x00 (0000ms, 0573ms total)
T15CC 058:321 JLINK_ReadMem (0xE000ED28, 0x0004 Bytes, ...) -- CPU_ReadMem(4 bytes @ 0xE000ED28) -- Data:  00 00 00 00  returns 0x00 (0001ms, 0574ms total)
T15CC 058:322 JLINK_ReadMem (0x200006B4, 0x0004 Bytes, ...) -- Read from C cache (4 bytes @ 0x200006B4) -- Data:  E9 0D 00 08  returns 0x00 (0000ms, 0574ms total)
T15CC 058:322 JLINK_ReadMem (0x200006A8, 0x0004 Bytes, ...) -- Read from C cache (4 bytes @ 0x200006A8) -- Data:  1F 1C 00 00  returns 0x00 (0000ms, 0574ms total)
T15CC 058:322 JLINK_ReadMem (0x200006AC, 0x0004 Bytes, ...) -- Read from C cache (4 bytes @ 0x200006AC) -- Data:  31 00 00 00  returns 0x00 (0000ms, 0574ms total)
T15CC 058:322 JLINK_ReadMem (0x200006B0, 0x0004 Bytes, ...) -- Read from C cache (4 bytes @ 0x200006B0) -- Data:  04 00 00 00  returns 0x00 (0000ms, 0574ms total)
T15CC 058:322 JLINK_ReadMem (0x200006D4, 0x0004 Bytes, ...) -- CPU_ReadMem(64 bytes @ 0x200006C0) -- Updating C cache (64 bytes @ 0x200006C0) -- Read from C cache (4 bytes @ 0x200006D4) -- Data:  9D 01 00 08  returns 0x00 (0002ms, 0576ms total)
T15CC 058:324 JLINK_ReadMem (0x200006C8, 0x0004 Bytes, ...) -- Read from C cache (4 bytes @ 0x200006C8) -- Data:  38 3E 00 08  returns 0x00 (0000ms, 0576ms total)
T15CC 058:324 JLINK_ReadMem (0x200006CC, 0x0004 Bytes, ...) -- Read from C cache (4 bytes @ 0x200006CC) -- Data:  38 3E 00 08  returns 0x00 (0000ms, 0576ms total)
T15CC 058:324 JLINK_ReadMem (0x200006D0, 0x0004 Bytes, ...) -- Read from C cache (4 bytes @ 0x200006D0) -- Data:  04 00 00 00  returns 0x00 (0000ms, 0576ms total)
T15CC 058:324 JLINK_ReadMemU32(0xE0001004, 0x0001 Items, ...) -- CPU_ReadMem(4 bytes @ 0xE0001004) -- Data:  9B B4 81 01  returns 0x01 (0001ms, 0577ms total)
T2498 059:349 JLINK_ReadMem (0x08000F02, 0x0002 Bytes, ...) -- CPU_ReadMem(64 bytes @ 0x08000F00) -- Updating C cache (64 bytes @ 0x08000F00) -- Read from C cache (2 bytes @ 0x08000F02) -- Data:  05 48  returns 0x00 (0002ms, 0579ms total)
T2498 059:351 JLINK_ReadMem (0x08000F04, 0x003C Bytes, ...) -- Read from C cache (60 bytes @ 0x08000F04) -- Data:  01 68 05 A0 02 F0 F2 F9 10 BD 00 00 00 2C 01 40 ...  returns 0x00 (0000ms, 0579ms total)
T2498 059:351 JLINK_Step() -- Read from C cache (2 bytes @ 0x08000F02) -- Read from C cache (4 bytes @ 0x08000F18) -- Simulated  returns 0x00 (0001ms, 0580ms total)
T2498 059:352 JLINK_ReadReg(R15)  returns 0x08000F04 (0000ms, 0580ms total)
T2498 059:352 JLINK_ReadReg(XPSR)  returns 0x81000029 (0000ms, 0580ms total)
T2498 059:352 JLINK_Step() -- Read from C cache (2 bytes @ 0x08000F04) -- CPU_ReadMem(64 bytes @ 0x20000000) -- Updating C cache (64 bytes @ 0x20000000) -- Read from C cache (4 bytes @ 0x20000028) -- Simulated  returns 0x00 (0002ms, 0582ms total)
T2498 059:354 JLINK_ReadReg(R15)  returns 0x08000F06 (0000ms, 0582ms total)
T2498 059:354 JLINK_ReadReg(XPSR)  returns 0x81000029 (0000ms, 0582ms total)
T2498 059:354 JLINK_Step() -- Read from C cache (2 bytes @ 0x08000F06) -- Simulated  returns 0x00 (0000ms, 0582ms total)
T2498 059:354 JLINK_ReadReg(R15)  returns 0x08000F08 (0000ms, 0582ms total)
T2498 059:354 JLINK_ReadReg(XPSR)  returns 0x81000029 (0000ms, 0582ms total)
T2498 059:354 JLINK_SetBPEx(Addr = 0x08000F0C, Type = 0xFFFFFFF2)  returns 0x00000006 (0000ms, 0582ms total)
T2498 059:354 JLINK_SetBPEx(Addr = 0x08000EFE, Type = 0xFFFFFFF2)  returns 0x00000007 (0000ms, 0582ms total)
T2498 059:354 JLINK_Go() -- CPU_WriteMem(4 bytes @ 0xE0002008) -- CPU_WriteMem(4 bytes @ 0xE000200C) -- CPU_WriteMem(4 bytes @ 0xE0002010) -- CPU_WriteMem(4 bytes @ 0xE0002014) -- CPU_WriteMem(4 bytes @ 0xE0002018) -- CPU_WriteMem(4 bytes @ 0xE000201C) (0006ms, 0588ms total)
T2498 059:461 JLINK_IsHalted()  returns TRUE (0004ms, 0592ms total)
T2498 059:465 JLINK_Halt()  returns 0x00 (0000ms, 0588ms total)
T2498 059:466 JLINK_IsHalted()  returns TRUE (0000ms, 0589ms total)
T2498 059:466 JLINK_IsHalted()  returns TRUE (0000ms, 0589ms total)
T2498 059:466 JLINK_IsHalted()  returns TRUE (0000ms, 0589ms total)
T2498 059:466 JLINK_ReadReg(R15)  returns 0x08000F0C (0000ms, 0589ms total)
T2498 059:466 JLINK_ReadReg(XPSR)  returns 0x61000029 (0000ms, 0589ms total)
T2498 059:466 JLINK_ClrBPEx(BPHandle = 0x00000006)  returns 0x00 (0000ms, 0589ms total)
T2498 059:466 JLINK_ClrBPEx(BPHandle = 0x00000007)  returns 0x00 (0000ms, 0589ms total)
T2498 059:466 JLINK_ReadMemU32(0xE000ED30, 0x0001 Items, ...) -- CPU_ReadMem(4 bytes @ 0xE000ED30) -- Data:  03 00 00 00  returns 0x01 (0001ms, 0590ms total)
T2498 059:467 JLINK_ReadMemU32(0xE0001028, 0x0001 Items, ...) -- CPU_ReadMem(4 bytes @ 0xE0001028) -- Data:  00 00 00 00  returns 0x01 (0001ms, 0591ms total)
T2498 059:468 JLINK_ReadMemU32(0xE0001038, 0x0001 Items, ...) -- CPU_ReadMem(4 bytes @ 0xE0001038) -- Data:  00 02 00 00  returns 0x01 (0001ms, 0592ms total)
T2498 059:469 JLINK_ReadMemU32(0xE0001048, 0x0001 Items, ...) -- CPU_ReadMem(4 bytes @ 0xE0001048) -- Data:  00 00 00 00  returns 0x01 (0001ms, 0593ms total)
T2498 059:470 JLINK_ReadMemU32(0xE0001058, 0x0001 Items, ...) -- CPU_ReadMem(4 bytes @ 0xE0001058) -- Data:  00 00 00 00  returns 0x01 (0001ms, 0594ms total)
T2498 059:471 JLINK_ReadReg(R0)  returns 0x00000012 (0000ms, 0594ms total)
T2498 059:471 JLINK_ReadReg(R1)  returns 0x00000040 (0001ms, 0595ms total)
T2498 059:472 JLINK_ReadReg(R2)  returns 0x40013800 (0000ms, 0595ms total)
T2498 059:472 JLINK_ReadReg(R3)  returns 0x000000C0 (0000ms, 0595ms total)
T2498 059:472 JLINK_ReadReg(R4)  returns 0x02000000 (0000ms, 0595ms total)
T2498 059:472 JLINK_ReadReg(R5)  returns 0xE000E000 (0000ms, 0595ms total)
T2498 059:472 JLINK_ReadReg(R6)  returns 0xE000E000 (0000ms, 0595ms total)
T2498 059:472 JLINK_ReadReg(R7)  returns 0x20000684 (0000ms, 0595ms total)
T2498 059:472 JLINK_ReadReg(R8)  returns 0x00000000 (0000ms, 0595ms total)
T2498 059:472 JLINK_ReadReg(R9)  returns 0x20000160 (0000ms, 0595ms total)
T2498 059:472 JLINK_ReadReg(R10)  returns 0x00000000 (0000ms, 0595ms total)
T2498 059:472 JLINK_ReadReg(R11)  returns 0x0800053B (0000ms, 0595ms total)
T2498 059:472 JLINK_ReadReg(R12)  returns 0x00000064 (0001ms, 0596ms total)
T2498 059:473 JLINK_ReadReg(R13)  returns 0x20000680 (0000ms, 0596ms total)
T2498 059:473 JLINK_ReadReg(R14)  returns 0x08000553 (0000ms, 0596ms total)
T2498 059:473 JLINK_ReadReg(R15)  returns 0x08000F0C (0000ms, 0596ms total)
T2498 059:473 JLINK_ReadReg(XPSR)  returns 0x61000029 (0000ms, 0596ms total)
T2498 059:473 JLINK_ReadReg(MSP)  returns 0x20000680 (0000ms, 0596ms total)
T2498 059:473 JLINK_ReadReg(PSP)  returns 0x20000800 (0000ms, 0596ms total)
T2498 059:473 JLINK_ReadReg(CFBP)  returns 0x00000000 (0000ms, 0596ms total)
T15CC 059:477 JLINK_ReadMem (0x20000684, 0x0004 Bytes, ...) -- CPU_ReadMem(64 bytes @ 0x20000680) -- Updating C cache (64 bytes @ 0x20000680) -- Read from C cache (4 bytes @ 0x20000684) -- Data:  F9 FF FF FF  returns 0x00 (0002ms, 0598ms total)
T15CC 059:479 JLINK_ReadMem (0x200006A0, 0x0004 Bytes, ...) -- Read from C cache (4 bytes @ 0x200006A0) -- Data:  3E 08 00 08  returns 0x00 (0000ms, 0598ms total)
T15CC 059:479 JLINK_ReadMem (0x200006A4, 0x0004 Bytes, ...) -- Read from C cache (4 bytes @ 0x200006A4) -- Data:  00 00 00 61  returns 0x00 (0000ms, 0598ms total)
T15CC 059:479 JLINK_ReadMem (0x2000069C, 0x0004 Bytes, ...) -- Read from C cache (4 bytes @ 0x2000069C) -- Data:  E9 0D 00 08  returns 0x00 (0000ms, 0598ms total)
T15CC 059:480 JLINK_ReadMem (0xE000ED28, 0x0004 Bytes, ...) -- CPU_ReadMem(4 bytes @ 0xE000ED28) -- Data:  00 00 00 00  returns 0x00 (0000ms, 0598ms total)
T15CC 059:480 JLINK_ReadMem (0x200006B4, 0x0004 Bytes, ...) -- Read from C cache (4 bytes @ 0x200006B4) -- Data:  E9 0D 00 08  returns 0x00 (0001ms, 0599ms total)
T15CC 059:481 JLINK_ReadMem (0x200006A8, 0x0004 Bytes, ...) -- Read from C cache (4 bytes @ 0x200006A8) -- Data:  1F 1C 00 00  returns 0x00 (0000ms, 0599ms total)
T15CC 059:481 JLINK_ReadMem (0x200006AC, 0x0004 Bytes, ...) -- Read from C cache (4 bytes @ 0x200006AC) -- Data:  31 00 00 00  returns 0x00 (0000ms, 0599ms total)
T15CC 059:481 JLINK_ReadMem (0x200006B0, 0x0004 Bytes, ...) -- Read from C cache (4 bytes @ 0x200006B0) -- Data:  04 00 00 00  returns 0x00 (0000ms, 0599ms total)
T15CC 059:481 JLINK_ReadMem (0x200006D4, 0x0004 Bytes, ...) -- CPU_ReadMem(64 bytes @ 0x200006C0) -- Updating C cache (64 bytes @ 0x200006C0) -- Read from C cache (4 bytes @ 0x200006D4) -- Data:  9D 01 00 08  returns 0x00 (0001ms, 0600ms total)
T15CC 059:482 JLINK_ReadMem (0x200006C8, 0x0004 Bytes, ...) -- Read from C cache (4 bytes @ 0x200006C8) -- Data:  38 3E 00 08  returns 0x00 (0000ms, 0600ms total)
T15CC 059:482 JLINK_ReadMem (0x200006CC, 0x0004 Bytes, ...) -- Read from C cache (4 bytes @ 0x200006CC) -- Data:  38 3E 00 08  returns 0x00 (0001ms, 0601ms total)
T15CC 059:483 JLINK_ReadMem (0x200006D0, 0x0004 Bytes, ...) -- Read from C cache (4 bytes @ 0x200006D0) -- Data:  04 00 00 00  returns 0x00 (0000ms, 0601ms total)
T15CC 059:483 JLINK_ReadMemU32(0xE0001004, 0x0001 Items, ...) -- CPU_ReadMem(4 bytes @ 0xE0001004) -- Data:  A6 7D 83 01  returns 0x01 (0001ms, 0602ms total)
T15CC 059:534 JLINK_ReadMem (0x08000F0C, 0x003C Bytes, ...) -- CPU_ReadMem(128 bytes @ 0x08000F00) -- Updating C cache (128 bytes @ 0x08000F00) -- Read from C cache (60 bytes @ 0x08000F0C) -- Data:  10 BD 00 00 00 2C 01 40 00 08 01 40 28 00 00 20 ...  returns 0x00 (0003ms, 0605ms total)
T15CC 066:431 JLINK_ReadMem (0x08000EFE, 0x0002 Bytes, ...) -- CPU_ReadMem(64 bytes @ 0x08000EC0) -- Updating C cache (64 bytes @ 0x08000EC0) -- Read from C cache (2 bytes @ 0x08000EFE) -- Data:  FF F7  returns 0x00 (0002ms, 0607ms total)
T15CC 066:433 JLINK_ReadMem (0x08000F00, 0x003C Bytes, ...) -- Read from C cache (60 bytes @ 0x08000F00) -- Data:  E1 FF 05 48 01 68 05 A0 02 F0 F2 F9 10 BD 00 00 ...  returns 0x00 (0000ms, 0607ms total)
T15CC 067:360 JLINK_ReadMem (0x20000028, 0x0004 Bytes, ...) -- CPU_ReadMem(64 bytes @ 0x20000000) -- Updating C cache (64 bytes @ 0x20000000) -- Read from C cache (4 bytes @ 0x20000028) -- Data:  00 00 00 00  returns 0x00 (0001ms, 0608ms total)
T2498 082:245 JLINK_SetBPEx(Addr = 0x08000EFE, Type = 0xFFFFFFF2)  returns 0x00000008 (0000ms, 0608ms total)
T2498 082:245 JLINK_Go() -- CPU_WriteMem(4 bytes @ 0xE000200C) -- CPU_WriteMem(4 bytes @ 0xE0002008) -- CPU_WriteMem(4 bytes @ 0xE0002008) -- CPU_WriteMem(4 bytes @ 0xE000200C) -- CPU_WriteMem(4 bytes @ 0xE0002010) -- CPU_WriteMem(4 bytes @ 0xE0002014) -- CPU_WriteMem(4 bytes @ 0xE0002018) -- CPU_WriteMem(4 bytes @ 0xE000201C) (0006ms, 0614ms total)
T2498 082:352 JLINK_IsHalted()  returns TRUE (0005ms, 0620ms total)
T2498 082:357 JLINK_Halt()  returns 0x00 (0000ms, 0615ms total)
T2498 082:357 JLINK_IsHalted()  returns TRUE (0000ms, 0615ms total)
T2498 082:357 JLINK_IsHalted()  returns TRUE (0000ms, 0615ms total)
T2498 082:357 JLINK_IsHalted()  returns TRUE (0000ms, 0615ms total)
T2498 082:357 JLINK_ReadReg(R15)  returns 0x08000EFE (0000ms, 0615ms total)
T2498 082:357 JLINK_ReadReg(XPSR)  returns 0xA1000029 (0000ms, 0615ms total)
T2498 082:357 JLINK_ClrBPEx(BPHandle = 0x00000008)  returns 0x00 (0000ms, 0615ms total)
T2498 082:357 JLINK_ReadMemU32(0xE000ED30, 0x0001 Items, ...) -- CPU_ReadMem(4 bytes @ 0xE000ED30) -- Data:  03 00 00 00  returns 0x01 (0001ms, 0616ms total)
T2498 082:358 JLINK_ReadMemU32(0xE0001028, 0x0001 Items, ...) -- CPU_ReadMem(4 bytes @ 0xE0001028) -- Data:  00 00 00 00  returns 0x01 (0001ms, 0617ms total)
T2498 082:359 JLINK_ReadMemU32(0xE0001038, 0x0001 Items, ...) -- CPU_ReadMem(4 bytes @ 0xE0001038) -- Data:  00 02 00 00  returns 0x01 (0001ms, 0618ms total)
T2498 082:360 JLINK_ReadMemU32(0xE0001048, 0x0001 Items, ...) -- CPU_ReadMem(4 bytes @ 0xE0001048) -- Data:  00 00 00 00  returns 0x01 (0001ms, 0619ms total)
T2498 082:361 JLINK_ReadMemU32(0xE0001058, 0x0001 Items, ...) -- CPU_ReadMem(4 bytes @ 0xE0001058) -- Data:  00 00 00 00  returns 0x01 (0001ms, 0620ms total)
T2498 082:362 JLINK_ReadReg(R0)  returns 0x40012C00 (0000ms, 0620ms total)
T2498 082:362 JLINK_ReadReg(R1)  returns 0x00000001 (0000ms, 0620ms total)
T2498 082:362 JLINK_ReadReg(R2)  returns 0xFFFFFFFE (0000ms, 0620ms total)
T2498 082:362 JLINK_ReadReg(R3)  returns 0x00000001 (0000ms, 0620ms total)
T2498 082:362 JLINK_ReadReg(R4)  returns 0x08003E38 (0000ms, 0620ms total)
T2498 082:362 JLINK_ReadReg(R5)  returns 0x08003E38 (0000ms, 0620ms total)
T2498 082:362 JLINK_ReadReg(R6)  returns 0x00000004 (0000ms, 0620ms total)
T2498 082:363 JLINK_ReadReg(R7)  returns 0x20000684 (0000ms, 0620ms total)
T2498 082:363 JLINK_ReadReg(R8)  returns 0x00000000 (0000ms, 0620ms total)
T2498 082:363 JLINK_ReadReg(R9)  returns 0x20000160 (0000ms, 0620ms total)
T2498 082:363 JLINK_ReadReg(R10)  returns 0x00000000 (0000ms, 0620ms total)
T2498 082:363 JLINK_ReadReg(R11)  returns 0x0800053B (0000ms, 0620ms total)
T2498 082:363 JLINK_ReadReg(R12)  returns 0x000003C0 (0000ms, 0620ms total)
T2498 082:363 JLINK_ReadReg(R13)  returns 0x200006B0 (0000ms, 0620ms total)
T2498 082:363 JLINK_ReadReg(R14)  returns 0x08000EFF (0000ms, 0620ms total)
T2498 082:363 JLINK_ReadReg(R15)  returns 0x08000EFE (0000ms, 0620ms total)
T2498 082:363 JLINK_ReadReg(XPSR)  returns 0xA1000029 (0000ms, 0620ms total)
T2498 082:363 JLINK_ReadReg(MSP)  returns 0x200006B0 (0000ms, 0620ms total)
T2498 082:363 JLINK_ReadReg(PSP)  returns 0x20000800 (0000ms, 0620ms total)
T2498 082:364 JLINK_ReadReg(CFBP)  returns 0x00000000 (0000ms, 0621ms total)
T15CC 082:367 JLINK_ReadMem (0x200006B4, 0x0004 Bytes, ...) -- CPU_ReadMem(64 bytes @ 0x20000680) -- Updating C cache (64 bytes @ 0x20000680) -- Read from C cache (4 bytes @ 0x200006B4) -- Data:  F9 FF FF FF  returns 0x00 (0002ms, 0623ms total)
T15CC 082:369 JLINK_ReadMem (0x200006D0, 0x0004 Bytes, ...) -- CPU_ReadMem(64 bytes @ 0x200006C0) -- Updating C cache (64 bytes @ 0x200006C0) -- Read from C cache (4 bytes @ 0x200006D0) -- Data:  B0 01 00 08  returns 0x00 (0002ms, 0625ms total)
T15CC 082:371 JLINK_ReadMem (0x200006D4, 0x0004 Bytes, ...) -- Read from C cache (4 bytes @ 0x200006D4) -- Data:  00 00 00 21  returns 0x00 (0000ms, 0625ms total)
T15CC 082:371 JLINK_ReadMem (0x200006CC, 0x0004 Bytes, ...) -- Read from C cache (4 bytes @ 0x200006CC) -- Data:  3B 0D 00 08  returns 0x00 (0000ms, 0625ms total)
T15CC 082:371 JLINK_ReadMem (0xE000ED28, 0x0004 Bytes, ...) -- CPU_ReadMem(4 bytes @ 0xE000ED28) -- Data:  00 00 00 00  returns 0x00 (0001ms, 0626ms total)
T15CC 082:382 JLINK_ReadMemU32(0xE0001004, 0x0001 Items, ...) -- CPU_ReadMem(4 bytes @ 0xE0001004) -- Data:  C2 7A 8E 01  returns 0x01 (0001ms, 0627ms total)
T15CC 082:383 JLINK_ReadMem (0x20000028, 0x0004 Bytes, ...) -- CPU_ReadMem(64 bytes @ 0x20000000) -- Updating C cache (64 bytes @ 0x20000000) -- Read from C cache (4 bytes @ 0x20000028) -- Data:  00 00 00 00  returns 0x00 (0001ms, 0628ms total)
T15CC 082:394 JLINK_ReadMem (0x08000EFE, 0x0002 Bytes, ...) -- CPU_ReadMem(64 bytes @ 0x08000EC0) -- Updating C cache (64 bytes @ 0x08000EC0) -- Read from C cache (2 bytes @ 0x08000EFE) -- Data:  FF F7  returns 0x00 (0002ms, 0631ms total)
T15CC 082:396 JLINK_ReadMem (0x08000F00, 0x003C Bytes, ...) -- CPU_ReadMem(64 bytes @ 0x08000F00) -- Updating C cache (64 bytes @ 0x08000F00) -- Read from C cache (60 bytes @ 0x08000F00) -- Data:  E1 FF 05 48 01 68 05 A0 02 F0 F2 F9 10 BD 00 00 ...  returns 0x00 (0001ms, 0632ms total)
T2498 082:908 JLINK_Step() -- Read from C cache (2 bytes @ 0x08000EFE) -- Read from C cache (2 bytes @ 0x08000F00) -- Simulated  returns 0x00 (0001ms, 0633ms total)
T2498 082:909 JLINK_ReadReg(R15)  returns 0x08000EC4 (0000ms, 0633ms total)
T2498 082:909 JLINK_ReadReg(XPSR)  returns 0xA1000029 (0000ms, 0633ms total)
T2498 082:909 JLINK_SetBPEx(Addr = 0x08000EFE, Type = 0xFFFFFFF2)  returns 0x00000009 (0000ms, 0633ms total)
T2498 082:909 JLINK_Go() -- CPU_WriteMem(4 bytes @ 0xE0002008) -- CPU_WriteMem(4 bytes @ 0xE000200C) -- CPU_WriteMem(4 bytes @ 0xE0002010) -- CPU_WriteMem(4 bytes @ 0xE0002014) -- CPU_WriteMem(4 bytes @ 0xE0002018) -- CPU_WriteMem(4 bytes @ 0xE000201C) (0006ms, 0639ms total)
T2498 083:016 JLINK_IsHalted()  returns TRUE (0005ms, 0644ms total)
T2498 083:021 JLINK_Halt()  returns 0x00 (0000ms, 0639ms total)
T2498 083:021 JLINK_IsHalted()  returns TRUE (0000ms, 0639ms total)
T2498 083:021 JLINK_IsHalted()  returns TRUE (0000ms, 0639ms total)
T2498 083:021 JLINK_IsHalted()  returns TRUE (0000ms, 0639ms total)
T2498 083:021 JLINK_ReadReg(R15)  returns 0x08000EFE (0000ms, 0639ms total)
T2498 083:021 JLINK_ReadReg(XPSR)  returns 0xA1000029 (0000ms, 0639ms total)
T2498 083:021 JLINK_ClrBPEx(BPHandle = 0x00000009)  returns 0x00 (0001ms, 0640ms total)
T2498 083:022 JLINK_ReadMemU32(0xE000ED30, 0x0001 Items, ...) -- CPU_ReadMem(4 bytes @ 0xE000ED30) -- Data:  03 00 00 00  returns 0x01 (0000ms, 0640ms total)
T2498 083:023 JLINK_ReadMemU32(0xE0001028, 0x0001 Items, ...) -- CPU_ReadMem(4 bytes @ 0xE0001028) -- Data:  00 00 00 00  returns 0x01 (0000ms, 0640ms total)
T2498 083:023 JLINK_ReadMemU32(0xE0001038, 0x0001 Items, ...) -- CPU_ReadMem(4 bytes @ 0xE0001038) -- Data:  00 02 00 00  returns 0x01 (0001ms, 0641ms total)
T2498 083:024 JLINK_ReadMemU32(0xE0001048, 0x0001 Items, ...) -- CPU_ReadMem(4 bytes @ 0xE0001048) -- Data:  00 00 00 00  returns 0x01 (0001ms, 0642ms total)
T2498 083:025 JLINK_ReadMemU32(0xE0001058, 0x0001 Items, ...) -- CPU_ReadMem(4 bytes @ 0xE0001058) -- Data:  00 00 00 00  returns 0x01 (0001ms, 0643ms total)
T2498 083:026 JLINK_ReadReg(R0)  returns 0x40012C00 (0000ms, 0643ms total)
T2498 083:026 JLINK_ReadReg(R1)  returns 0x00000001 (0000ms, 0643ms total)
T2498 083:026 JLINK_ReadReg(R2)  returns 0xFFFFFFFE (0000ms, 0643ms total)
T2498 083:026 JLINK_ReadReg(R3)  returns 0x00000001 (0001ms, 0644ms total)
T2498 083:027 JLINK_ReadReg(R4)  returns 0x08003E38 (0000ms, 0644ms total)
T2498 083:027 JLINK_ReadReg(R5)  returns 0x08003E38 (0000ms, 0644ms total)
T2498 083:027 JLINK_ReadReg(R6)  returns 0x00000004 (0000ms, 0644ms total)
T2498 083:027 JLINK_ReadReg(R7)  returns 0x20000684 (0000ms, 0644ms total)
T2498 083:027 JLINK_ReadReg(R8)  returns 0x00000000 (0000ms, 0644ms total)
T2498 083:027 JLINK_ReadReg(R9)  returns 0x20000160 (0000ms, 0644ms total)
T2498 083:027 JLINK_ReadReg(R10)  returns 0x00000000 (0000ms, 0644ms total)
T2498 083:027 JLINK_ReadReg(R11)  returns 0x0800053B (0000ms, 0644ms total)
T2498 083:027 JLINK_ReadReg(R12)  returns 0x00000064 (0000ms, 0644ms total)
T2498 083:027 JLINK_ReadReg(R13)  returns 0x200006B0 (0000ms, 0644ms total)
T2498 083:027 JLINK_ReadReg(R14)  returns 0x08000EFF (0000ms, 0644ms total)
T2498 083:027 JLINK_ReadReg(R15)  returns 0x08000EFE (0001ms, 0645ms total)
T2498 083:028 JLINK_ReadReg(XPSR)  returns 0xA1000029 (0000ms, 0645ms total)
T2498 083:028 JLINK_ReadReg(MSP)  returns 0x200006B0 (0000ms, 0645ms total)
T2498 083:028 JLINK_ReadReg(PSP)  returns 0x20000800 (0000ms, 0645ms total)
T2498 083:028 JLINK_ReadReg(CFBP)  returns 0x00000000 (0000ms, 0645ms total)
T15CC 083:029 JLINK_ReadMem (0x200006B4, 0x0004 Bytes, ...) -- CPU_ReadMem(64 bytes @ 0x20000680) -- Updating C cache (64 bytes @ 0x20000680) -- Read from C cache (4 bytes @ 0x200006B4) -- Data:  F9 FF FF FF  returns 0x00 (0001ms, 0646ms total)
T15CC 083:030 JLINK_ReadMem (0x200006D0, 0x0004 Bytes, ...) -- CPU_ReadMem(64 bytes @ 0x200006C0) -- Updating C cache (64 bytes @ 0x200006C0) -- Read from C cache (4 bytes @ 0x200006D0) -- Data:  B0 01 00 08  returns 0x00 (0002ms, 0648ms total)
T15CC 083:032 JLINK_ReadMem (0x200006D4, 0x0004 Bytes, ...) -- Read from C cache (4 bytes @ 0x200006D4) -- Data:  00 00 00 21  returns 0x00 (0000ms, 0648ms total)
T15CC 083:032 JLINK_ReadMem (0x200006CC, 0x0004 Bytes, ...) -- Read from C cache (4 bytes @ 0x200006CC) -- Data:  3B 0D 00 08  returns 0x00 (0000ms, 0648ms total)
T15CC 083:032 JLINK_ReadMem (0xE000ED28, 0x0004 Bytes, ...) -- CPU_ReadMem(4 bytes @ 0xE000ED28) -- Data:  00 00 00 00  returns 0x00 (0001ms, 0649ms total)
T15CC 083:033 JLINK_ReadMemU32(0xE0001004, 0x0001 Items, ...) -- CPU_ReadMem(4 bytes @ 0xE0001004) -- Data:  43 5F 90 01  returns 0x01 (0001ms, 0650ms total)
T15CC 083:034 JLINK_ReadMem (0x20000028, 0x0004 Bytes, ...) -- CPU_ReadMem(64 bytes @ 0x20000000) -- Updating C cache (64 bytes @ 0x20000000) -- Read from C cache (4 bytes @ 0x20000028) -- Data:  00 00 00 00  returns 0x00 (0001ms, 0651ms total)
T2498 083:268 JLINK_Step() -- CPU_ReadMem(64 bytes @ 0x08000EC0) -- Updating C cache (64 bytes @ 0x08000EC0) -- Read from C cache (2 bytes @ 0x08000EFE) -- CPU_ReadMem(64 bytes @ 0x08000F00) -- Updating C cache (64 bytes @ 0x08000F00) -- Read from C cache (2 bytes @ 0x08000F00) -- Simulated  returns 0x00 (0003ms, 0654ms total)
T2498 083:271 JLINK_ReadReg(R15)  returns 0x08000EC4 (0000ms, 0654ms total)
T2498 083:271 JLINK_ReadReg(XPSR)  returns 0xA1000029 (0000ms, 0654ms total)
T2498 083:271 JLINK_SetBPEx(Addr = 0x08000EFE, Type = 0xFFFFFFF2)  returns 0x0000000A (0000ms, 0654ms total)
T2498 083:271 JLINK_Go() -- CPU_WriteMem(4 bytes @ 0xE0002008) -- CPU_WriteMem(4 bytes @ 0xE000200C) -- CPU_WriteMem(4 bytes @ 0xE0002010) -- CPU_WriteMem(4 bytes @ 0xE0002014) -- CPU_WriteMem(4 bytes @ 0xE0002018) -- CPU_WriteMem(4 bytes @ 0xE000201C) (0005ms, 0659ms total)
T2498 083:377 JLINK_IsHalted()  returns TRUE (0005ms, 0665ms total)
T2498 083:382 JLINK_Halt()  returns 0x00 (0000ms, 0660ms total)
T2498 083:382 JLINK_IsHalted()  returns TRUE (0000ms, 0660ms total)
T2498 083:382 JLINK_IsHalted()  returns TRUE (0000ms, 0660ms total)
T2498 083:382 JLINK_IsHalted()  returns TRUE (0000ms, 0660ms total)
T2498 083:382 JLINK_ReadReg(R15)  returns 0x08000EFE (0000ms, 0660ms total)
T2498 083:382 JLINK_ReadReg(XPSR)  returns 0xA1000029 (0000ms, 0660ms total)
T2498 083:382 JLINK_ClrBPEx(BPHandle = 0x0000000A)  returns 0x00 (0001ms, 0661ms total)
T2498 083:383 JLINK_ReadMemU32(0xE000ED30, 0x0001 Items, ...) -- CPU_ReadMem(4 bytes @ 0xE000ED30) -- Data:  03 00 00 00  returns 0x01 (0001ms, 0662ms total)
T2498 083:384 JLINK_ReadMemU32(0xE0001028, 0x0001 Items, ...) -- CPU_ReadMem(4 bytes @ 0xE0001028) -- Data:  00 00 00 00  returns 0x01 (0000ms, 0662ms total)
T2498 083:384 JLINK_ReadMemU32(0xE0001038, 0x0001 Items, ...) -- CPU_ReadMem(4 bytes @ 0xE0001038) -- Data:  00 02 00 00  returns 0x01 (0001ms, 0663ms total)
T2498 083:385 JLINK_ReadMemU32(0xE0001048, 0x0001 Items, ...) -- CPU_ReadMem(4 bytes @ 0xE0001048) -- Data:  00 00 00 00  returns 0x01 (0001ms, 0664ms total)
T2498 083:386 JLINK_ReadMemU32(0xE0001058, 0x0001 Items, ...) -- CPU_ReadMem(4 bytes @ 0xE0001058) -- Data:  00 00 00 00  returns 0x01 (0001ms, 0665ms total)
